TDA6C 010:635 SEGGER J-Link V6.30h Log File (0000ms, 1968ms total)
TDA6C 010:635 DLL Compiled: Mar 16 2018 18:02:51 (0000ms, 1968ms total)
TDA6C 010:635 Logging started @ 2018-08-25 15:11 (0000ms, 1968ms total)
TDA6C 010:635 JLINK_SetWarnOutHandler(...) (0000ms, 1968ms total)
TDA6C 010:635 JLINK_OpenEx(...)
Firmware: J-Link V9 compiled Apr 20 2018 16:47:26
Hardware: V9.40
S/N: 59402672
Feature(s): GDB, RDI, FlashBP, FlashDL, JFlash
TELNET listener socket opened on port 19021WEBSRV 
Starting webserver (0106ms, 2074ms total)
TDA6C 010:635 WEBSRV Webserver running on local port 19080 (0107ms, 2075ms total)
TDA6C 010:635   returns O.K. (0107ms, 2075ms total)
TDA6C 010:742 JLINK_GetEmuCaps()  returns 0xB9FF7BBF (0000ms, 2075ms total)
TDA6C 010:742 JLINK_TIF_GetAvailable(...) (0000ms, 2075ms total)
TDA6C 010:742 JLINK_SetErrorOutHandler(...) (0000ms, 2075ms total)
TDA6C 010:742 JLINK_ExecCommand("ProjectFile = "G:\Work\sh-z-003\design\code\demo\ex_uart\ex_uart\MDK-ARM\JLinkSettings.ini"", ...).   returns 0x00 (0002ms, 2077ms total)
TDA6C 010:744 JLINK_ExecCommand("Device = STM32F407VETx", ...). Device "STM32F407VE" selected.  returns 0x00 (0002ms, 2079ms total)
TDA6C 010:746 JLINK_ExecCommand("DisableConnectionTimeout", ...).   returns 0x01 (0000ms, 2079ms total)
TDA6C 010:746 JLINK_GetHardwareVersion()  returns 0x16F30 (0000ms, 2079ms total)
TDA6C 010:746 JLINK_GetDLLVersion()  returns 63008 (0000ms, 2079ms total)
TDA6C 010:746 JLINK_GetFirmwareString(...) (0000ms, 2079ms total)
TDA6C 010:746 JLINK_GetDLLVersion()  returns 63008 (0000ms, 2079ms total)
TDA6C 010:746 JLINK_GetCompileDateTime() (0000ms, 2079ms total)
TDA6C 010:746 JLINK_GetFirmwareString(...) (0000ms, 2079ms total)
TDA6C 010:746 JLINK_GetHardwareVersion()  returns 0x16F30 (0000ms, 2079ms total)
TDA6C 010:746 JLINK_TIF_Select(JLINKARM_TIF_SWD)  returns 0x00 (0001ms, 2080ms total)
TDA6C 010:747 JLINK_SetSpeed(5000) (0000ms, 2080ms total)
TDA6C 010:747 JLINK_GetId() >0x10B TIF>Found SW-DP with ID 0x2BA01477 >0x0D TIF> >0x28 TIF> >0x0D TIF> >0x28 TIF> >0x0D TIF> >0x28 TIF> >0x0D TIF> >0x28 TIF> >0x0D TIF> >0x21 TIF> >0x0D TIF> >0x28 TIF> >0x0D TIF> >0x28 TIF> >0x0D TIF> >0x28 TIF> >0x0D TIF> >0x21 TIF> >0x0D TIF> >0x21 TIF> >0x0D TIF> >0x28 TIF> >0x0D TIF> >0x21 TIF> >0x0D TIF> >0x21 TIF> >0x0D TIF> >0x28 TIF> >0x0D TIF> >0x21 TIF> >0x0D TIF> >0x21 TIF> >0x0D TIF> >0x28 TIF> >0x0D TIF> >0x21 TIF> >0x0D TIF> >0x21 TIF> >0x0D TIF> >0x28 TIF>
 >0x0D TIF> >0x21 TIF> >0x0D TIF> >0x21 TIF> >0x0D TIF> >0x28 TIF> >0x0D TIF> >0x21 TIF> >0x0D TIF> >0x21 TIF> >0x10B TIF>Found SW-DP with ID 0x2BA01477 >0x0D TIF> >0x28 TIF> >0x0D TIF> >0x28 TIF> >0x0D TIF> >0x28 TIF> >0x0D TIF> >0x28 TIF> >0x0D TIF> >0x21 TIF> >0x0D TIF> >0x28 TIF>Scanning AP map to find all available APs >0x0D TIF> >0x28 TIF> >0x0D TIF> >0x21 TIF> >0x0D TIF> >0x21 TIF> >0x0D TIF> >0x28 TIF> >0x0D TIF> >0x21 TIF> >0x0D TIF> >0x21 TIF>
AP[1]: Stopped AP scan as end of AP map has been reachedAP[0]: AHB-AP (IDR: 0x24770011)Iterating through AP map to find AHB-AP to use >0x42 TIF> >0x28 TIF> >0x0D TIF> >0x28 TIF> >0x0D TIF> >0x21 TIF> >0x0D TIF> >0x21 TIF> >0x42 TIF> >0x28 TIF> >0x0D TIF> >0x28 TIF> >0x0D TIF> >0x28 TIF> >0x0D TIF> >0x21 TIF> >0x0D TIF> >0x21 TIF>AP[0]: Core foundAP[0]: AHB-AP ROM base: 0xE00FF000 >0x0D TIF> >0x28 TIF> >0x0D TIF> >0x28 TIF> >0x0D TIF> >0x28 TIF> >0x0D TIF> >0x21 TIF> >0x0D TIF> >0x21 TIF>
CPUID register: 0x410FC241. Implementer code: 0x41 (ARM)Found Cortex-M4 r0p1, Little endian. -- CPU_ReadMem(4 bytes @ 0xE000EDF0) -- CPU_WriteMem(4 bytes @ 0xE000EDF0) -- CPU_ReadMem(4 bytes @ 0xE0002000)FPUnit: 6 code (BP) slots and 2 literal slots -- CPU_ReadMem(4 bytes @ 0xE000EDFC) -- CPU_WriteMem(4 bytes @ 0xE000EDFC) -- CPU_ReadMem(4 bytes @ 0xE0001000) -- CPU_WriteMem(4 bytes @ 0xE0001000) -- CPU_ReadMem(4 bytes @ 0xE000ED88) -- CPU_WriteMem(4 bytes @ 0xE000ED88)
 -- CPU_ReadMem(4 bytes @ 0xE000ED88) -- CPU_WriteMem(4 bytes @ 0xE000ED88)CoreSight components:ROMTbl[0] @ E00FF000 -- CPU_ReadMem(16 bytes @ 0xE00FF000) -- CPU_ReadMem(16 bytes @ 0xE000EFF0) -- CPU_ReadMem(16 bytes @ 0xE000EFE0)ROMTbl[0][0]: E000E000, CID: B105E00D, PID: 000BB00C SCS-M7 -- CPU_ReadMem(16 bytes @ 0xE0001FF0) -- CPU_ReadMem(16 bytes @ 0xE0001FE0)ROMTbl[0][1]: E0001000, CID: B105E00D, PID: 003BB002 DWT -- CPU_ReadMem(16 bytes @ 0xE0002FF0) -- CPU_ReadMem(16 bytes @ 0xE0002FE0)
ROMTbl[0][2]: E0002000, CID: B105E00D, PID: 002BB003 FPB -- CPU_ReadMem(16 bytes @ 0xE0000FF0) -- CPU_ReadMem(16 bytes @ 0xE0000FE0)ROMTbl[0][3]: E0000000, CID: B105E00D, PID: 003BB001 ITM -- CPU_ReadMem(16 bytes @ 0xE00FF010) -- CPU_ReadMem(16 bytes @ 0xE0040FF0) -- CPU_ReadMem(16 bytes @ 0xE0040FE0)ROMTbl[0][4]: E0040000, CID: B105900D, PID: 000BB9A1 TPIU -- CPU_ReadMem(16 bytes @ 0xE0041FF0) -- CPU_ReadMem(16 bytes @ 0xE0041FE0)ROMTbl[0][5]: E0041000, CID: B105900D, PID: 000BB925 ETM >0x0D TIF>
 >0x21 TIF>  returns 0x2BA01477 (0125ms, 2205ms total)
TDA6C 010:872 JLINK_GetDLLVersion()  returns 63008 (0000ms, 2205ms total)
TDA6C 010:872 JLINK_CORE_GetFound()  returns 0xE0000FF (0000ms, 2205ms total)
TDA6C 010:872 JLINK_GetDebugInfo(0x100 = JLINKARM_ROM_TABLE_ADDR_INDEX) -- Value=0xE00FF000  returns 0x00 (0000ms, 2205ms total)
TDA6C 010:872 JLINK_GetDebugInfo(0x100 = JLINKARM_ROM_TABLE_ADDR_INDEX) -- Value=0xE00FF000  returns 0x00 (0000ms, 2205ms total)
TDA6C 010:872 JLINK_GetDebugInfo(0x101 = JLINKARM_DEBUG_INFO_ETM_ADDR_INDEX) -- Value=0xE0041000  returns 0x00 (0000ms, 2205ms total)
TDA6C 010:872 JLINK_ReadMemEx(0xE0041FD0, 0x0020 Bytes, ..., Flags = 0x02000004) -- CPU_ReadMem(32 bytes @ 0xE0041FD0) - Data: 04 00 00 00 00 00 00 00 00 00 00 00 00 00 00 00 ...  returns 0x20 (0000ms, 2205ms total)
TDA6C 010:872 JLINK_GetDebugInfo(0x102 = JLINKARM_DEBUG_INFO_MTB_ADDR_INDEX) -- Value=0x00000000  returns 0x00 (0001ms, 2206ms total)
TDA6C 010:873 JLINK_GetDebugInfo(0x103 = JLINKARM_DEBUG_INFO_TPIU_ADDR_INDEX) -- Value=0xE0040000  returns 0x00 (0000ms, 2206ms total)
TDA6C 010:873 JLINK_GetDebugInfo(0x104 = JLINKARM_DEBUG_INFO_ITM_ADDR_INDEX) -- Value=0xE0000000  returns 0x00 (0000ms, 2206ms total)
TDA6C 010:873 JLINK_GetDebugInfo(0x105 = JLINKARM_DEBUG_INFO_DWT_ADDR_INDEX) -- Value=0xE0001000  returns 0x00 (0000ms, 2206ms total)
TDA6C 010:873 JLINK_GetDebugInfo(0x106 = JLINKARM_DEBUG_INFO_FPB_ADDR_INDEX) -- Value=0xE0002000  returns 0x00 (0000ms, 2206ms total)
TDA6C 010:873 JLINK_GetDebugInfo(0x107 = JLINKARM_DEBUG_INFO_NVIC_ADDR_INDEX) -- Value=0xE000E000  returns 0x00 (0000ms, 2206ms total)
TDA6C 010:873 JLINK_GetDebugInfo(0x10C = JLINKARM_DEBUG_INFO_DBG_ADDR_INDEX) -- Value=0xE000EDF0  returns 0x00 (0000ms, 2206ms total)
TDA6C 010:873 JLINK_GetDebugInfo(0x01 = Unknown) -- Value=0x00000001  returns 0x00 (0000ms, 2206ms total)
TDA6C 010:873 JLINK_ReadMemU32(0xE000ED00, 0x0001 Items, ...) -- CPU_ReadMem(4 bytes @ 0xE000ED00) - Data: 41 C2 0F 41  returns 0x01 (0000ms, 2206ms total)
TDA6C 010:873 JLINK_GetDebugInfo(0x10F = JLINKARM_DEBUG_INFO_HAS_CORTEX_M_SECURITY_EXT_INDEX) -- Value=0x00000000  returns 0x00 (0000ms, 2206ms total)
TDA6C 010:873 JLINK_SetResetType(JLINKARM_CM3_RESET_TYPE_NORMAL)  returns JLINKARM_CM3_RESET_TYPE_NORMAL (0000ms, 2206ms total)
TDA6C 010:873 JLINK_Reset() -- CPU is running -- CPU_WriteMem(4 bytes @ 0xE000EDF0) -- CPU is running -- CPU_WriteMem(4 bytes @ 0xE000EDFC)Reset: Halt core after reset via DEMCR.VC_CORERESET. >0x35 TIF>Reset: Reset device via AIRCR.SYSRESETREQ. -- CPU is running -- CPU_WriteMem(4 bytes @ 0xE000ED0C) >0x0D TIF> >0x28 TIF> -- CPU_ReadMem(4 bytes @ 0xE000EDF0) -- CPU_ReadMem(4 bytes @ 0xE000EDF0) -- CPU is running -- CPU_WriteMem(4 bytes @ 0xE000EDF0) -- CPU is running -- CPU_WriteMem(4 bytes @ 0xE000EDFC)
 -- CPU_ReadMem(4 bytes @ 0xE000EDF0) -- CPU_WriteMem(4 bytes @ 0xE0002000) -- CPU_ReadMem(4 bytes @ 0xE000EDFC) -- CPU_ReadMem(4 bytes @ 0xE0001000) (0066ms, 2272ms total)
TDA6C 010:939 JLINK_ReadReg(R15 (PC))  returns 0x0800019C (0000ms, 2272ms total)
TDA6C 010:939 JLINK_ReadReg(XPSR)  returns 0x01000000 (0000ms, 2272ms total)
TDA6C 010:939 JLINK_Halt()  returns 0x00 (0000ms, 2272ms total)
TDA6C 010:939 JLINK_ReadMemU32(0xE000EDF0, 0x0001 Items, ...) -- CPU_ReadMem(4 bytes @ 0xE000EDF0) - Data: 03 00 03 00  returns 0x01 (0001ms, 2273ms total)
TDA6C 010:940 JLINK_WriteU32(0xE000EDF0, 0xA05F0003) -- CPU_WriteMem(4 bytes @ 0xE000EDF0)  returns 0x00 (0000ms, 2273ms total)
TDA6C 010:940 JLINK_WriteU32(0xE000EDFC, 0x01000000) -- CPU_WriteMem(4 bytes @ 0xE000EDFC)  returns 0x00 (0001ms, 2274ms total)
TDA6C 010:941 JLINK_GetHWStatus(...)  returns 0x00 (0000ms, 2274ms total)
TDA6C 010:941 JLINK_GetNumBPUnits(Type = 0xFFFFFF00)  returns 0x06 (0000ms, 2274ms total)
TDA6C 010:941 JLINK_GetNumBPUnits(Type = 0xF0)  returns 0x2000 (0000ms, 2274ms total)
TDA6C 010:941 JLINK_GetNumWPUnits()  returns 0x04 (0000ms, 2274ms total)
TDA6C 010:941 JLINK_GetSpeed()  returns 0xFA0 (0000ms, 2274ms total)
TDA6C 010:941 JLINK_ReadMemU32(0xE000E004, 0x0001 Items, ...) -- CPU_ReadMem(4 bytes @ 0xE000E004) - Data: 02 00 00 00  returns 0x01 (0001ms, 2275ms total)
TDA6C 010:942 JLINK_ReadMemU32(0xE000E004, 0x0001 Items, ...) -- CPU_ReadMem(4 bytes @ 0xE000E004) - Data: 02 00 00 00  returns 0x01 (0000ms, 2275ms total)
TDA6C 010:942 JLINK_WriteMemEx(0xE0001000, 0x001C Bytes, ..., Flags = 0x02000004) - Data: 01 00 00 00 00 00 00 00 00 00 00 00 00 00 00 00 ... -- CPU_WriteMem(28 bytes @ 0xE0001000)  returns 0x1C (0003ms, 2278ms total)
TDA6C 010:945 JLINK_ReadReg(R15 (PC))  returns 0x0800019C (0000ms, 2278ms total)
TDA6C 010:945 JLINK_ReadReg(XPSR)  returns 0x01000000 (0000ms, 2278ms total)
TDA6C 011:103 JLINK_SetResetType(JLINKARM_CM3_RESET_TYPE_NORMAL)  returns JLINKARM_CM3_RESET_TYPE_NORMAL (0001ms, 2279ms total)
TDA6C 011:104 JLINK_Reset() -- CPU_WriteMem(4 bytes @ 0xE000EDF0) -- CPU_WriteMem(4 bytes @ 0xE000EDFC)Reset: Halt core after reset via DEMCR.VC_CORERESET. >0x35 TIF>Reset: Reset device via AIRCR.SYSRESETREQ. -- CPU_WriteMem(4 bytes @ 0xE000ED0C) >0x0D TIF> >0x28 TIF> -- CPU_ReadMem(4 bytes @ 0xE000EDF0) -- CPU_ReadMem(4 bytes @ 0xE000EDF0) -- CPU_WriteMem(4 bytes @ 0xE000EDF0) -- CPU_WriteMem(4 bytes @ 0xE000EDFC) -- CPU_ReadMem(4 bytes @ 0xE000EDF0) -- CPU_WriteMem(4 bytes @ 0xE0002000)
 -- CPU_ReadMem(4 bytes @ 0xE000EDFC) -- CPU_ReadMem(4 bytes @ 0xE0001000) (0064ms, 2343ms total)
TDA6C 011:168 JLINK_ReadReg(R15 (PC))  returns 0x0800019C (0000ms, 2343ms total)
TDA6C 011:168 JLINK_ReadReg(XPSR)  returns 0x01000000 (0000ms, 2343ms total)
TDA6C 011:168 JLINK_ReadReg(R0)  returns 0x00000000 (0000ms, 2343ms total)
TDA6C 011:168 JLINK_ReadReg(R1)  returns 0x00000000 (0000ms, 2343ms total)
TDA6C 011:168 JLINK_ReadReg(R2)  returns 0x00000000 (0000ms, 2343ms total)
TDA6C 011:168 JLINK_ReadReg(R3)  returns 0x00000000 (0000ms, 2343ms total)
TDA6C 011:169 JLINK_ReadReg(R4)  returns 0x00000000 (0000ms, 2344ms total)
TDA6C 011:169 JLINK_ReadReg(R5)  returns 0x00000000 (0000ms, 2344ms total)
TDA6C 011:169 JLINK_ReadReg(R6)  returns 0x00000000 (0000ms, 2344ms total)
TDA6C 011:169 JLINK_ReadReg(R7)  returns 0x00000000 (0000ms, 2344ms total)
TDA6C 011:169 JLINK_ReadReg(R8)  returns 0x00000000 (0000ms, 2344ms total)
TDA6C 011:169 JLINK_ReadReg(R9)  returns 0x00000000 (0000ms, 2344ms total)
TDA6C 011:169 JLINK_ReadReg(R10)  returns 0x00000000 (0000ms, 2344ms total)
TDA6C 011:169 JLINK_ReadReg(R11)  returns 0x00000000 (0000ms, 2344ms total)
TDA6C 011:169 JLINK_ReadReg(R12)  returns 0x00000000 (0000ms, 2344ms total)
TDA6C 011:169 JLINK_ReadReg(R13 (SP))  returns 0x20000980 (0000ms, 2344ms total)
TDA6C 011:169 JLINK_ReadReg(R14)  returns 0xFFFFFFFF (0000ms, 2344ms total)
TDA6C 011:169 JLINK_ReadReg(R15 (PC))  returns 0x0800019C (0000ms, 2344ms total)
TDA6C 011:169 JLINK_ReadReg(XPSR)  returns 0x01000000 (0000ms, 2344ms total)
TDA6C 011:169 JLINK_ReadReg(MSP)  returns 0x20000980 (0000ms, 2344ms total)
TDA6C 011:169 JLINK_ReadReg(PSP)  returns 0x00000000 (0000ms, 2344ms total)
TDA6C 011:169 JLINK_ReadReg(CFBP)  returns 0x00000000 (0000ms, 2344ms total)
TDA6C 011:169 JLINK_ReadReg(FPSCR)  returns 0x00000000 (0004ms, 2348ms total)
TDA6C 011:173 JLINK_ReadReg(FPS0)  returns 0x00000000 (0000ms, 2348ms total)
TDA6C 011:173 JLINK_ReadReg(FPS1)  returns 0x00000000 (0000ms, 2348ms total)
TDA6C 011:173 JLINK_ReadReg(FPS2)  returns 0x00000000 (0000ms, 2348ms total)
TDA6C 011:173 JLINK_ReadReg(FPS3)  returns 0x00000000 (0000ms, 2348ms total)
TDA6C 011:173 JLINK_ReadReg(FPS4)  returns 0x00000000 (0000ms, 2348ms total)
TDA6C 011:173 JLINK_ReadReg(FPS5)  returns 0x00000000 (0000ms, 2348ms total)
TDA6C 011:173 JLINK_ReadReg(FPS6)  returns 0x00000000 (0000ms, 2348ms total)
TDA6C 011:173 JLINK_ReadReg(FPS7)  returns 0x00000000 (0000ms, 2348ms total)
TDA6C 011:173 JLINK_ReadReg(FPS8)  returns 0x00000000 (0000ms, 2348ms total)
TDA6C 011:173 JLINK_ReadReg(FPS9)  returns 0x00000000 (0000ms, 2348ms total)
TDA6C 011:173 JLINK_ReadReg(FPS10)  returns 0x00000000 (0000ms, 2348ms total)
TDA6C 011:173 JLINK_ReadReg(FPS11)  returns 0x00000000 (0000ms, 2348ms total)
TDA6C 011:173 JLINK_ReadReg(FPS12)  returns 0x00000000 (0000ms, 2348ms total)
TDA6C 011:173 JLINK_ReadReg(FPS13)  returns 0x00000000 (0000ms, 2348ms total)
TDA6C 011:173 JLINK_ReadReg(FPS14)  returns 0x00000000 (0000ms, 2348ms total)
TDA6C 011:173 JLINK_ReadReg(FPS15)  returns 0x00000000 (0000ms, 2348ms total)
TDA6C 011:173 JLINK_ReadReg(FPS16)  returns 0x00000000 (0000ms, 2348ms total)
TDA6C 011:173 JLINK_ReadReg(FPS17)  returns 0x00000000 (0000ms, 2348ms total)
TDA6C 011:173 JLINK_ReadReg(FPS18)  returns 0x00000000 (0001ms, 2349ms total)
TDA6C 011:174 JLINK_ReadReg(FPS19)  returns 0x00000000 (0000ms, 2349ms total)
TDA6C 011:174 JLINK_ReadReg(FPS20)  returns 0x00000000 (0000ms, 2349ms total)
TDA6C 011:174 JLINK_ReadReg(FPS21)  returns 0x00000000 (0000ms, 2349ms total)
TDA6C 011:174 JLINK_ReadReg(FPS22)  returns 0x00000000 (0000ms, 2349ms total)
TDA6C 011:174 JLINK_ReadReg(FPS23)  returns 0x00000000 (0000ms, 2349ms total)
TDA6C 011:174 JLINK_ReadReg(FPS24)  returns 0x00000000 (0000ms, 2349ms total)
TDA6C 011:174 JLINK_ReadReg(FPS25)  returns 0x00000000 (0000ms, 2349ms total)
TDA6C 011:174 JLINK_ReadReg(FPS26)  returns 0x00000000 (0000ms, 2349ms total)
TDA6C 011:174 JLINK_ReadReg(FPS27)  returns 0x00000000 (0000ms, 2349ms total)
TDA6C 011:174 JLINK_ReadReg(FPS28)  returns 0x00000000 (0000ms, 2349ms total)
TDA6C 011:174 JLINK_ReadReg(FPS29)  returns 0x00000000 (0000ms, 2349ms total)
TDA6C 011:174 JLINK_ReadReg(FPS30)  returns 0x00000000 (0000ms, 2349ms total)
TDA6C 011:174 JLINK_ReadReg(FPS31)  returns 0x00000000 (0000ms, 2349ms total)
TDA6C 011:174 JLINK_ReadMemU32(0xE0001004, 0x0001 Items, ...) - Data: 00 00 00 00  returns 0x01 (0000ms, 2349ms total)
TDA6C 011:309 JLINK_ReadMemEx(0x08000188, 0x003C Bytes, ..., Flags = 0x02000000) -- CPU_ReadMem(128 bytes @ 0x08000180) -- Updating C cache (128 bytes @ 0x08000180) -- Read from C cache (60 bytes @ 0x08000188) - Data: DF F8 0C D0 00 F0 68 F8 00 48 00 47 E5 19 00 08 ...  returns 0x3C (0001ms, 2350ms total)
TD908 012:123 JLINK_ReadMemEx(0x0800019C, 0x0002 Bytes, ..., Flags = 0x02000000) -- Read from C cache (2 bytes @ 0x0800019C) - Data: 06 48  returns 0x02 (0000ms, 2350ms total)
TD908 012:123 JLINK_SetBPEx(Addr = 0x080019E4, Type = 0xFFFFFFF2)  returns 0x00000001 (0000ms, 2350ms total)
TD908 012:123 JLINK_Go() -- CPU_WriteMem(4 bytes @ 0xE0002000) -- CPU_ReadMem(4 bytes @ 0xE0001000) -- CPU_WriteMem(4 bytes @ 0xE0002008) -- CPU_WriteMem(4 bytes @ 0xE000200C) -- CPU_WriteMem(4 bytes @ 0xE0002010) -- CPU_WriteMem(4 bytes @ 0xE0002014) -- CPU_WriteMem(4 bytes @ 0xE0002018) -- CPU_WriteMem(4 bytes @ 0xE000201C) -- CPU_WriteMem(4 bytes @ 0xE0001004) (0002ms, 2352ms total)
TD908 012:226 JLINK_IsHalted()  returns TRUE (0001ms, 2353ms total)
TD908 012:227 JLINK_Halt()  returns 0x00 (0000ms, 2352ms total)
TD908 012:227 JLINK_IsHalted()  returns TRUE (0000ms, 2352ms total)
TD908 012:227 JLINK_IsHalted()  returns TRUE (0000ms, 2352ms total)
TD908 012:227 JLINK_IsHalted()  returns TRUE (0000ms, 2352ms total)
TD908 012:227 JLINK_ReadReg(R15 (PC))  returns 0x080019E4 (0000ms, 2352ms total)
TD908 012:227 JLINK_ReadReg(XPSR)  returns 0x61000000 (0000ms, 2352ms total)
TD908 012:227 JLINK_ClrBPEx(BPHandle = 0x00000001)  returns 0x00 (0000ms, 2352ms total)
TD908 012:227 JLINK_ReadMemU32(0xE000ED30, 0x0001 Items, ...) -- CPU_ReadMem(4 bytes @ 0xE000ED30) - Data: 02 00 00 00  returns 0x01 (0001ms, 2353ms total)
TD908 012:228 JLINK_ReadMemU32(0xE0001028, 0x0001 Items, ...) -- CPU_ReadMem(4 bytes @ 0xE0001028) - Data: 00 00 00 00  returns 0x01 (0000ms, 2353ms total)
TD908 012:228 JLINK_ReadMemU32(0xE0001038, 0x0001 Items, ...) -- CPU_ReadMem(4 bytes @ 0xE0001038) - Data: 00 02 00 00  returns 0x01 (0000ms, 2353ms total)
TD908 012:228 JLINK_ReadMemU32(0xE0001048, 0x0001 Items, ...) -- CPU_ReadMem(4 bytes @ 0xE0001048) - Data: 00 00 00 00  returns 0x01 (0001ms, 2354ms total)
TD908 012:229 JLINK_ReadMemU32(0xE0001058, 0x0001 Items, ...) -- CPU_ReadMem(4 bytes @ 0xE0001058) - Data: 00 00 00 00  returns 0x01 (0000ms, 2354ms total)
TD908 012:229 JLINK_ReadReg(R0)  returns 0x080019E5 (0000ms, 2354ms total)
TD908 012:229 JLINK_ReadReg(R1)  returns 0x20000980 (0000ms, 2354ms total)
TD908 012:229 JLINK_ReadReg(R2)  returns 0x00000000 (0000ms, 2354ms total)
TD908 012:229 JLINK_ReadReg(R3)  returns 0x080019D7 (0000ms, 2354ms total)
TD908 012:229 JLINK_ReadReg(R4)  returns 0x08001A64 (0000ms, 2354ms total)
TD908 012:229 JLINK_ReadReg(R5)  returns 0x08001A64 (0000ms, 2354ms total)
TD908 012:229 JLINK_ReadReg(R6)  returns 0x00000000 (0000ms, 2354ms total)
TD908 012:229 JLINK_ReadReg(R7)  returns 0x00000000 (0000ms, 2354ms total)
TD908 012:229 JLINK_ReadReg(R8)  returns 0x00000000 (0000ms, 2354ms total)
TD908 012:229 JLINK_ReadReg(R9)  returns 0x00000000 (0000ms, 2354ms total)
TD908 012:229 JLINK_ReadReg(R10)  returns 0x00000000 (0000ms, 2354ms total)
TD908 012:229 JLINK_ReadReg(R11)  returns 0x00000000 (0000ms, 2354ms total)
TD908 012:229 JLINK_ReadReg(R12)  returns 0x00000000 (0000ms, 2354ms total)
TD908 012:229 JLINK_ReadReg(R13 (SP))  returns 0x20000980 (0000ms, 2354ms total)
TD908 012:229 JLINK_ReadReg(R14)  returns 0x0800027D (0000ms, 2354ms total)
TD908 012:229 JLINK_ReadReg(R15 (PC))  returns 0x080019E4 (0000ms, 2354ms total)
TD908 012:229 JLINK_ReadReg(XPSR)  returns 0x61000000 (0000ms, 2354ms total)
TD908 012:229 JLINK_ReadReg(MSP)  returns 0x20000980 (0000ms, 2354ms total)
TD908 012:229 JLINK_ReadReg(PSP)  returns 0x00000000 (0000ms, 2354ms total)
TD908 012:229 JLINK_ReadReg(CFBP)  returns 0x00000000 (0000ms, 2354ms total)
TD908 012:229 JLINK_ReadReg(FPSCR)  returns 0x00000000 (0003ms, 2357ms total)
TD908 012:232 JLINK_ReadReg(FPS0)  returns 0x00000000 (0000ms, 2357ms total)
TD908 012:232 JLINK_ReadReg(FPS1)  returns 0x00000000 (0000ms, 2357ms total)
TD908 012:232 JLINK_ReadReg(FPS2)  returns 0x00000000 (0000ms, 2357ms total)
TD908 012:232 JLINK_ReadReg(FPS3)  returns 0x00000000 (0000ms, 2357ms total)
TD908 012:232 JLINK_ReadReg(FPS4)  returns 0x00000000 (0000ms, 2357ms total)
TD908 012:232 JLINK_ReadReg(FPS5)  returns 0x00000000 (0000ms, 2357ms total)
TD908 012:232 JLINK_ReadReg(FPS6)  returns 0x00000000 (0000ms, 2357ms total)
TD908 012:232 JLINK_ReadReg(FPS7)  returns 0x00000000 (0000ms, 2357ms total)
TD908 012:232 JLINK_ReadReg(FPS8)  returns 0x00000000 (0000ms, 2357ms total)
TD908 012:232 JLINK_ReadReg(FPS9)  returns 0x00000000 (0000ms, 2357ms total)
TD908 012:232 JLINK_ReadReg(FPS10)  returns 0x00000000 (0000ms, 2357ms total)
TD908 012:232 JLINK_ReadReg(FPS11)  returns 0x00000000 (0000ms, 2357ms total)
TD908 012:232 JLINK_ReadReg(FPS12)  returns 0x00000000 (0000ms, 2357ms total)
TD908 012:232 JLINK_ReadReg(FPS13)  returns 0x00000000 (0000ms, 2357ms total)
TD908 012:232 JLINK_ReadReg(FPS14)  returns 0x00000000 (0000ms, 2357ms total)
TD908 012:232 JLINK_ReadReg(FPS15)  returns 0x00000000 (0000ms, 2357ms total)
TD908 012:232 JLINK_ReadReg(FPS16)  returns 0x00000000 (0000ms, 2357ms total)
TD908 012:232 JLINK_ReadReg(FPS17)  returns 0x00000000 (0000ms, 2357ms total)
TD908 012:232 JLINK_ReadReg(FPS18)  returns 0x00000000 (0000ms, 2357ms total)
TD908 012:232 JLINK_ReadReg(FPS19)  returns 0x00000000 (0000ms, 2357ms total)
TD908 012:232 JLINK_ReadReg(FPS20)  returns 0x00000000 (0000ms, 2357ms total)
TD908 012:232 JLINK_ReadReg(FPS21)  returns 0x00000000 (0000ms, 2357ms total)
TD908 012:232 JLINK_ReadReg(FPS22)  returns 0x00000000 (0000ms, 2357ms total)
TD908 012:232 JLINK_ReadReg(FPS23)  returns 0x00000000 (0000ms, 2357ms total)
TD908 012:232 JLINK_ReadReg(FPS24)  returns 0x00000000 (0000ms, 2357ms total)
TD908 012:232 JLINK_ReadReg(FPS25)  returns 0x00000000 (0000ms, 2357ms total)
TD908 012:232 JLINK_ReadReg(FPS26)  returns 0x00000000 (0000ms, 2357ms total)
TD908 012:232 JLINK_ReadReg(FPS27)  returns 0x00000000 (0000ms, 2357ms total)
TD908 012:232 JLINK_ReadReg(FPS28)  returns 0x00000000 (0000ms, 2357ms total)
TD908 012:232 JLINK_ReadReg(FPS29)  returns 0x00000000 (0000ms, 2357ms total)
TD908 012:232 JLINK_ReadReg(FPS30)  returns 0x00000000 (0000ms, 2357ms total)
TD908 012:232 JLINK_ReadReg(FPS31)  returns 0x00000000 (0000ms, 2357ms total)
TDA6C 012:235 JLINK_ReadMemU32(0xE0001004, 0x0001 Items, ...) -- CPU_ReadMem(4 bytes @ 0xE0001004) - Data: C6 0E 00 00  returns 0x01 (0000ms, 2357ms total)
TDA6C 012:238 JLINK_ReadMemEx(0x080018E4, 0x003C Bytes, ..., Flags = 0x02000000) -- CPU_ReadMem(128 bytes @ 0x080018C0) -- Updating C cache (128 bytes @ 0x080018C0) -- Read from C cache (60 bytes @ 0x080018E4) - Data: 7D F9 00 EB C0 01 01 EB 00 10 61 68 49 00 B0 FB ...  returns 0x3C (0000ms, 2357ms total)
TDA6C 012:238 JLINK_ReadMemEx(0x08001920, 0x003C Bytes, ..., Flags = 0x02000000) -- CPU_ReadMem(64 bytes @ 0x08001940) -- Updating C cache (64 bytes @ 0x08001940) -- Read from C cache (60 bytes @ 0x08001920) - Data: C0 01 01 EB 00 10 61 68 89 00 B0 FB F1 F6 FF F7 ...  returns 0x3C (0001ms, 2358ms total)
TDA6C 012:239 JLINK_ReadMemEx(0x0800195C, 0x003C Bytes, ..., Flags = 0x02000000) -- CPU_ReadMem(64 bytes @ 0x08001980) -- Updating C cache (64 bytes @ 0x08001980) -- Read from C cache (60 bytes @ 0x0800195C) - Data: FF F7 40 F9 00 EB C0 01 01 EB 00 10 61 68 89 00 ...  returns 0x3C (0000ms, 2358ms total)
TDA6C 012:239 JLINK_ReadMemEx(0x08001998, 0x003C Bytes, ..., Flags = 0x02000000) -- CPU_ReadMem(64 bytes @ 0x080019C0) -- Updating C cache (64 bytes @ 0x080019C0) -- Read from C cache (60 bytes @ 0x08001998) - Data: 61 68 89 00 B0 FB F1 F0 B0 FB F5 F0 6F F0 18 01 ...  returns 0x3C (0001ms, 2359ms total)
TDA6C 012:240 JLINK_ReadMemEx(0x080019D4, 0x003C Bytes, ..., Flags = 0x02000000) -- CPU_ReadMem(64 bytes @ 0x08001A00) -- Updating C cache (64 bytes @ 0x08001A00) -- Read from C cache (60 bytes @ 0x080019D4) - Data: 70 47 00 20 01 E0 01 C1 12 1F 00 2A FB D1 70 47 ...  returns 0x3C (0000ms, 2359ms total)
TDA6C 019:645 JLINK_SetResetType(JLINKARM_CM3_RESET_TYPE_NORMAL)  returns JLINKARM_CM3_RESET_TYPE_NORMAL (0000ms, 2359ms total)
TDA6C 019:645 JLINK_Reset() -- CPU_WriteMem(4 bytes @ 0xE000EDF0) -- CPU_WriteMem(4 bytes @ 0xE000EDFC)Reset: Halt core after reset via DEMCR.VC_CORERESET. >0x35 TIF>Reset: Reset device via AIRCR.SYSRESETREQ. -- CPU_WriteMem(4 bytes @ 0xE000ED0C) >0x0D TIF> >0x28 TIF> -- CPU_ReadMem(4 bytes @ 0xE000EDF0) -- CPU_ReadMem(4 bytes @ 0xE000EDF0) -- CPU_WriteMem(4 bytes @ 0xE000EDF0) -- CPU_WriteMem(4 bytes @ 0xE000EDFC) -- CPU_ReadMem(4 bytes @ 0xE000EDF0) -- CPU_WriteMem(4 bytes @ 0xE0002000)
 -- CPU_ReadMem(4 bytes @ 0xE000EDFC) -- CPU_ReadMem(4 bytes @ 0xE0001000) (0065ms, 2424ms total)
TDA6C 019:711 JLINK_ReadReg(R15 (PC))  returns 0x0800019C (0000ms, 2424ms total)
TDA6C 019:711 JLINK_ReadReg(XPSR)  returns 0x01000000 (0000ms, 2424ms total)
TDA6C 019:711 JLINK_ReadReg(R0)  returns 0x00000000 (0000ms, 2424ms total)
TDA6C 019:711 JLINK_ReadReg(R1)  returns 0x00000000 (0000ms, 2424ms total)
TDA6C 019:711 JLINK_ReadReg(R2)  returns 0x00000000 (0000ms, 2424ms total)
TDA6C 019:711 JLINK_ReadReg(R3)  returns 0x00000000 (0000ms, 2424ms total)
TDA6C 019:711 JLINK_ReadReg(R4)  returns 0x00000000 (0000ms, 2424ms total)
TDA6C 019:711 JLINK_ReadReg(R5)  returns 0x00000000 (0000ms, 2424ms total)
TDA6C 019:711 JLINK_ReadReg(R6)  returns 0x00000000 (0000ms, 2424ms total)
TDA6C 019:711 JLINK_ReadReg(R7)  returns 0x00000000 (0000ms, 2424ms total)
TDA6C 019:711 JLINK_ReadReg(R8)  returns 0x00000000 (0000ms, 2424ms total)
TDA6C 019:711 JLINK_ReadReg(R9)  returns 0x00000000 (0000ms, 2424ms total)
TDA6C 019:711 JLINK_ReadReg(R10)  returns 0x00000000 (0000ms, 2424ms total)
TDA6C 019:711 JLINK_ReadReg(R11)  returns 0x00000000 (0000ms, 2424ms total)
TDA6C 019:711 JLINK_ReadReg(R12)  returns 0x00000000 (0000ms, 2424ms total)
TDA6C 019:711 JLINK_ReadReg(R13 (SP))  returns 0x20000980 (0001ms, 2425ms total)
TDA6C 019:712 JLINK_ReadReg(R14)  returns 0xFFFFFFFF (0000ms, 2425ms total)
TDA6C 019:712 JLINK_ReadReg(R15 (PC))  returns 0x0800019C (0000ms, 2425ms total)
TDA6C 019:712 JLINK_ReadReg(XPSR)  returns 0x01000000 (0000ms, 2425ms total)
TDA6C 019:712 JLINK_ReadReg(MSP)  returns 0x20000980 (0000ms, 2425ms total)
